Sample in Buffer	Sample in Window	dac_data_i1	dac_data_q1	tx_data_i1_d	tx_data_q1_d	tx_data_p	tx_data_n	adc_data_i1	adc_data_q1	rx_data_i_r1	rx_data_q_r1	rx_frame_s	rx_data	rx_error_r1	adc_valid	dac_valid	rx_data_d	rx_frame_ibuf_s	delay_clk	tx_frame	clk	rx_error_r1
0	0	-2048	2047	4000	3777	0	77	436	-418	650	7142	0011	671	0	0	0	5042	0	0	0	0	0	
1	1	-2048	2047	4000	3777	40	37	424	-414	650	7142	1100	6444	0	1	1	671	0	0	1	0	0	
2	2	-2048	2047	4000	3777	0	77	424	-414	664	7144	0011	671	0	0	0	6444	0	0	0	0	0	
3	3	-2048	2047	4000	3777	40	37	436	-412	664	7144	1100	4252	0	1	1	671	0	0	1	0	0	
4	4	-2048	2047	4000	3777	0	77	436	-412	642	7152	0011	671	0	0	0	4252	0	0	0	0	0	
5	5	-2048	2047	4000	3777	40	37	418	-406	642	7152	1100	4443	0	1	1	671	0	0	1	0	0	
6	6	-2048	2047	4000	3777	0	77	418	-406	644	7143	0011	274	0	0	0	4443	0	0	0	0	0	
7	7	2047	2047	4000	3777	40	37	420	-413	644	7143	1100	2265	0	1	1	274	0	0	1	0	0	
8	8	2047	2047	3777	3777	0	77	420	-413	222	7465	0011	7205	0	0	0	2265	0	0	0	0	0	
9	9	2047	2047	3777	3777	37	37	146	-203	222	7465	1100	205	0	1	1	7205	0	0	1	0	0	
10	10	2047	2047	3777	3777	77	77	146	-203	7202	505	0011	7007	0	0	0	205	0	0	0	0	0	
11	11	2047	2047	3777	3777	37	37	-382	325	7202	505	1100	1646	0	1	1	7007	0	0	1	0	0	
12	12	2047	2047	3777	3777	77	77	-382	325	7016	746	0011	7106	0	0	0	1646	0	0	0	0	0	
13	13	2047	2047	3777	3777	37	37	-498	486	7016	746	1100	4627	0	1	1	7106	0	0	1	0	0	
14	14	2047	2047	3777	3777	77	77	-498	486	7146	627	0011	7106	0	0	0	4627	0	0	0	0	0	
15	15	2047	2047	3777	3777	37	37	-410	407	7146	627	1100	751	0	1	1	7106	0	0	1	0	0	
16	16	2047	2047	3777	3777	77	77	-410	407	7107	651	0011	7106	0	0	0	751	0	0	0	0	0	
17	17	2047	2047	3777	3777	37	37	-441	425	7107	651	1100	550	0	1	1	7106	0	0	1	0	0	
18	18	2047	2047	3777	3777	77	77	-441	425	7105	650	0011	7106	0	0	0	550	0	0	0	0	0	
19	19	2047	2047	3777	3777	37	37	-443	424	7105	650	1100	1657	0	1	1	7106	0	0	1	0	0	
20	20	2047	2047	3777	3777	77	77	-443	424	7116	657	0011	7106	0	0	0	1657	0	0	0	0	0	
21	21	2047	2047	3777	3777	37	37	-434	431	7116	657	1100	1731	0	1	1	7106	0	0	1	0	0	
22	22	2047	2047	3777	3777	77	77	-434	431	7117	631	0011	7106	0	0	0	1731	0	0	0	0	0	
23	23	2047	2047	3777	3777	37	37	-433	409	7117	631	1100	2540	0	1	1	7106	0	0	1	0	0	
24	24	2047	2047	3777	3777	77	77	-433	409	7125	640	0011	7502	0	0	0	2540	0	0	0	0	0	
25	25	2047	2047	3777	3777	37	37	-427	416	7125	640	1100	2743	0	1	1	7502	0	0	1	0	0	
26	26	2047	2047	3777	3777	77	77	-427	416	7527	243	0011	572	0	0	0	2743	0	0	0	0	0	
27	27	-2048	2047	3777	3777	37	37	-169	163	7527	243	1100	7456	0	1	1	572	0	0	1	0	0	
28	28	-2048	2047	4000	3777	77	77	-169	163	574	7256	0011	770	0	0	0	7456	0	0	0	0	0	
29	29	-2048	2047	4000	3777	40	37	380	-338	574	7256	1100	5356	0	1	1	770	0	0	1	0	0	
30	30	-2048	2047	4000	3777	0	77	380	-338	753	7056	0011	671	0	0	0	5356	0	0	0	0	0	
31	31	-2048	2047	4000	3777	40	37	491	-466	753	7056	1100	3561	0	1	1	671	0	0	1	0	0	
32	32	-2048	2047	4000	3777	0	77	491	-466	635	7161	0011	671	0	0	0	3561	0	0	0	0	0	
33	33	-2048	2047	4000	3777	40	37	413	-399	635	7161	1100	5245	0	1	1	671	0	0	1	0	0	
34	34	-2048	2047	4000	3777	0	77	413	-399	652	7145	0011	671	0	0	0	5245	0	0	0	0	0	
35	35	-2048	2047	4000	3777	40	37	426	-411	652	7145	1100	6736	0	1	1	671	0	0	1	0	0	
36	36	-2048	2047	4000	3777	0	77	426	-411	667	7136	0011	671	0	0	0	6736	0	0	0	0	0	
37	37	-2048	2047	4000	3777	40	37	439	-418	667	7136	1100	5744	0	1	1	671	0	0	1	0	0	
38	38	-2048	2047	4000	3777	0	77	439	-418	657	7144	0011	671	0	0	0	5744	0	0	0	0	0	
39	39	-2048	2047	4000	3777	40	37	431	-412	657	7144	1100	6537	0	1	1	671	0	0	1	0	0	
40	40	-2048	2047	4000	3777	0	77	431	-412	665	7137	0011	671	0	0	0	6537	0	0	0	0	0	
41	41	-2048	2047	4000	3777	40	37	437	-417	665	7137	1100	4751	0	1	1	671	0	0	1	0	0	
42	42	-2048	2047	4000	3777	0	77	437	-417	647	7151	0011	671	0	0	0	4751	0	0	0	0	0	
43	43	-2048	2047	4000	3777	40	37	423	-407	647	7151	1100	5345	0	1	1	671	0	0	1	0	0	
44	44	-2048	2047	4000	3777	0	77	423	-407	653	7145	0011	274	0	0	0	5345	0	0	0	0	0	
45	45	-2048	2047	4000	3777	40	37	427	-411	653	7145	1100	2763	0	1	1	274	0	0	1	0	0	
46	46	-2048	2047	4000	3777	0	77	427	-411	227	7463	0011	7105	0	0	0	2763	0	0	0	0	0	
47	47	2047	2047	4000	3777	40	37	151	-205	227	7463	1100	7404	0	1	1	7105	0	0	1	0	0	
48	48	2047	2047	3777	3777	0	77	151	-205	7174	504	0011	7007	0	0	0	7404	0	0	0	0	0	
49	49	2047	2047	3777	3777	37	37	-388	324	7174	504	1100	2643	0	1	1	7007	0	0	1	0	0	
50	50	2047	2047	3777	3777	77	77	-388	324	7026	743	0011	7106	0	0	0	2643	0	0	0	0	0	
51	51	2047	2047	3777	3777	37	37	-490	483	7026	743	1100	4026	0	1	1	7106	0	0	1	0	0	
52	52	2047	2047	3777	3777	77	77	-490	483	7140	626	0011	7106	0	0	0	4026	0	0	0	0	0	
53	53	2047	2047	3777	3777	37	37	-416	406	7140	626	1100	1252	0	1	1	7106	0	0	1	0	0	
54	54	2047	2047	3777	3777	77	77	-416	406	7112	652	0011	7106	0	0	0	1252	0	0	0	0	0	
55	55	2047	2047	3777	3777	37	37	-438	426	7112	652	1100	454	0	1	1	7106	0	0	1	0	0	
56	56	2047	2047	3777	3777	77	77	-438	426	7104	654	0011	7106	0	0	0	454	0	0	0	0	0	
57	57	2047	2047	3777	3777	37	37	-444	428	7104	654	1100	1252	0	1	1	7106	0	0	1	0	0	
58	58	2047	2047	3777	3777	77	77	-444	428	7112	652	0011	7106	0	0	0	1252	0	0	0	0	0	
59	59	2047	2047	3777	3777	37	37	-438	426	7112	652	1100	1353	0	1	1	7106	0	0	1	0	0	
60	60	2047	2047	3777	3777	77	77	-438	426	7113	653	0011	7106	0	0	0	1353	0	0	0	0	0	
61	61	2047	2047	3777	3777	37	37	-437	427	7113	653	1100	2330	0	1	1	7106	0	0	1	0	0	
62	62	2047	2047	3777	3777	77	77	-437	427	7123	630	0011	7106	0	0	0	2330	0	0	0	0	0	
63	63	2047	2047	3777	3777	37	37	-429	408	7123	630	1100	2146	0	1	1	7106	0	0	1	0	0	
64	64	2047	2047	3777	3777	77	77	-429	408	7121	646	0011	7502	0	0	0	2146	0	0	0	0	0	
65	65	-2048	2047	3777	3777	37	37	-431	422	7121	646	1100	3337	0	1	1	7502	0	0	1	0	0	
66	66	-2048	2047	4000	3777	77	77	-431	422	7533	237	0011	572	0	0	0	3337	0	0	0	0	0	
67	67	-2048	2047	4000	3777	40	37	-165	159	7533	237	1100	6464	0	1	1	572	0	0	1	0	0	
68	68	-2048	2047	4000	3777	0	77	-165	159	564	7264	0011	770	0	0	0	6464	0	0	0	0	0	
69	69	-2048	2047	4000	3777	40	37	372	-332	564	7264	1100	6050	0	1	1	770	0	0	1	0	0	
70	70	-2048	2047	4000	3777	0	77	372	-332	760	7050	0011	671	0	0	0	6050	0	0	0	0	0	
71	71	-2048	2047	4000	3777	40	37	496	-472	760	7050	1100	2463	0	1	1	671	0	0	1	0	0	
72	72	-2048	2047	4000	3777	0	77	496	-472	624	7163	0011	671	0	0	0	2463	0	0	0	0	0	
73	73	-2048	2047	4000	3777	40	37	404	-397	624	7163	1100	5345	0	1	1	671	0	0	1	0	0	
74	74	-2048	2047	4000	3777	0	77	404	-397	653	7145	0011	671	0	0	0	5345	0	0	0	0	0	
75	75	-2048	2047	4000	3777	40	37	427	-411	653	7145	1100	6536	0	1	1	671	0	0	1	0	0	
76	76	-2048	2047	4000	3777	0	77	427	-411	665	7136	0011	671	0	0	0	6536	0	0	0	0	0	
77	77	-2048	2047	4000	3777	40	37	437	-418	665	7136	1100	5543	0	1	1	671	0	0	1	0	0	
78	78	-2048	2047	4000	3777	0	77	437	-418	655	7143	0011	671	0	0	0	5543	0	0	0	0	0	
79	79	-2048	2047	4000	3777	40	37	429	-413	655	7143	1100	6240	0	1	1	671	0	0	1	0	0	
80	80	-2048	2047	4000	3777	0	77	429	-413	662	7140	0011	671	0	0	0	6240	0	0	0	0	0	
81	81	-2048	2047	4000	3777	40	37	434	-416	662	7140	1100	4452	0	1	1	671	0	0	1	0	0	
82	82	-2048	2047	4000	3777	0	77	434	-416	644	7152	0011	671	0	0	0	4452	0	0	0	0	0	
83	83	-2048	2047	4000	3777	40	37	420	-406	644	7152	1100	5443	0	1	1	671	0	0	1	0	0	
84	84	-2048	2047	4000	3777	0	77	420	-406	654	7143	0011	274	0	0	0	5443	0	0	0	0	0	
85	85	2047	2047	4000	3777	40	37	428	-413	654	7143	1100	2064	0	1	1	274	0	0	1	0	0	
86	86	2047	2047	3777	3777	0	77	428	-413	220	7464	0011	7105	0	0	0	2064	0	0	0	0	0	
87	87	2047	2047	3777	3777	37	37	144	-204	220	7464	1100	7600	0	1	1	7105	0	0	1	0	0	
88	88	2047	2047	3777	3777	77	77	144	-204	7176	500	0011	7007	0	0	0	7600	0	0	0	0	0	
89	89	2047	2047	3777	3777	37	37	-386	320	7176	500	1100	2743	0	1	1	7007	0	0	1	0	0	
90	90	2047	2047	3777	3777	77	77	-386	320	7027	743	0011	7106	0	0	0	2743	0	0	0	0	0	
91	91	2047	2047	3777	3777	37	37	-489	483	7027	743	1100	2725	0	1	1	7106	0	0	1	0	0	
92	92	2047	2047	3777	3777	77	77	-489	483	7127	625	0011	7106	0	0	0	2725	0	0	0	0	0	
93	93	2047	2047	3777	3777	37	37	-425	405	7127	625	1100	2052	0	1	1	7106	0	0	1	0	0	
94	94	2047	2047	3777	3777	77	77	-425	405	7120	652	0011	7106	0	0	0	2052	0	0	0	0	0	
95	95	2047	2047	3777	3777	37	37	-432	426	7120	652	1100	150	0	1	1	7106	0	0	1	0	0	
96	96	2047	2047	3777	3777	77	77	-432	426	7101	650	0011	7106	0	0	0	150	0	0	0	0	0	
97	97	2047	2047	3777	3777	37	37	-447	424	7101	650	1100	1551	0	1	1	7106	0	0	1	0	0	
98	98	2047	2047	3777	3777	77	77	-447	424	7115	651	0011	7106	0	0	0	1551	0	0	0	0	0	
99	99	2047	2047	3777	3777	37	37	-435	425	7115	651	1100	1046	0	1	1	7106	0	0	1	0	0	
100	100	2047	2047	3777	3777	77	77	-435	425	7110	646	0011	7106	0	0	0	1046	0	0	0	0	0	
101	101	2047	2047	3777	3777	37	37	-440	422	7110	646	1100	2336	0	1	1	7106	0	0	1	0	0	
102	102	2047	2047	3777	3777	77	77	-440	422	7123	636	0011	7106	0	0	0	2336	0	0	0	0	0	
103	103	2047	2047	3777	3777	37	37	-429	414	7123	636	1100	2135	0	1	1	7106	0	0	1	0	0	
104	104	2047	2047	3777	3777	77	77	-429	414	7121	635	0011	7502	0	0	0	2135	0	0	0	0	0	
105	105	-2048	2047	3777	3777	37	37	-431	413	7121	635	1100	3040	0	1	1	7502	0	0	1	0	0	
106	106	-2048	2047	4000	3777	77	77	-431	413	7530	240	0011	672	0	0	0	3040	0	0	0	0	0	
107	107	-2048	2047	4000	3777	40	37	-168	160	7530	240	1100	257	0	1	1	672	0	0	1	0	0	
108	108	-2048	2047	4000	3777	0	77	-168	160	602	7257	0011	770	0	0	0	257	0	0	0	0	0	
109	109	-2048	2047	4000	3777	40	37	386	-337	602	7257	1100	6054	0	1	1	770	0	0	1	0	0	
110	110	-2048	2047	4000	3777	0	77	386	-337	760	7054	0011	671	0	0	0	6054	0	0	0	0	0	
111	111	-2048	2047	4000	3777	40	37	496	-468	760	7054	1100	3561	0	1	1	671	0	0	1	0	0	
112	112	-2048	2047	4000	3777	0	77	496	-468	635	7161	0011	671	0	0	0	3561	0	0	0	0	0	
113	113	-2048	2047	4000	3777	40	37	413	-399	635	7161	1100	5646	0	1	1	671	0	0	1	0	0	
114	114	-2048	2047	4000	3777	0	77	413	-399	656	7146	0011	671	0	0	0	5646	0	0	0	0	0	
115	115	-2048	2047	4000	3777	40	37	430	-410	656	7146	1100	6634	0	1	1	671	0	0	1	0	0	
116	116	-2048	2047	4000	3777	0	77	430	-410	666	7134	0011	671	0	0	0	6634	0	0	0	0	0	
117	117	-2048	2047	4000	3777	40	37	438	-420	666	7134	1100	6044	0	1	1	671	0	0	1	0	0	
118	118	-2048	2047	4000	3777	0	77	438	-420	660	7144	0011	671	0	0	0	6044	0	0	0	0	0	
119	119	-2048	2047	4000	3777	40	37	432	-412	660	7144	1100	6534	0	1	1	671	0	0	1	0	0	
120	120	-2048	2047	4000	3777	0	77	432	-412	665	7134	0011	671	0	0	0	6534	0	0	0	0	0	
121	121	-2048	2047	4000	3777	40	37	437	-420	665	7134	1100	4253	0	1	1	671	0	0	1	0	0	
122	122	-2048	2047	4000	3777	0	77	437	-420	642	7153	0011	671	0	0	0	4253	0	0	0	0	0	
123	123	-2048	2047	4000	3777	40	37	418	-405	642	7153	1100	5441	0	1	1	671	0	0	1	0	0	
124	124	-2048	2047	4000	3777	0	77	418	-405	654	7141	0011	274	0	0	0	5441	0	0	0	0	0	
125	125	2047	2047	4000	3777	40	37	428	-415	654	7141	1100	2063	0	1	1	274	0	0	1	0	0	
126	126	2047	2047	3777	3777	0	77	428	-415	220	7463	0011	7205	0	0	0	2063	0	0	0	0	0	
127	127	2047	2047	3777	3777	37	37	144	-205	220	7463	1100	102	0	1	1	7205	0	0	1	0	0	
