Sample in Buffer	Sample in Window	DataPort_1	rx_data
0	0	D91	-1472	
1	1	A40	-595	
2	2	DAD	-1857	
3	3	8BF	-526	
4	4	DF2	1408	
5	5	580	-441	
6	6	E47	1471	
7	7	5BF	-280	
8	8	EE8	-1601	
9	9	9BF	-188	
10	10	F44	-194	
11	11	F3E	49	
12	12	031	1790	
13	13	6FE	157	
14	14	09D	1471	
15	15	5BF	406	
16	16	196	641	
17	17	281	764	
18	18	2FC	-1280	
19	19	B00	827	
20	20	33B	702	
21	21	2BE	685	
22	22	2AD	448	
23	23	1C0	895	
24	24	37F	1729	
25	25	6C1	834	
26	26	342	575	
27	27	23F	656	
28	28	290	-896	
29	29	C80	724	
30	30	2D4	-1922	
31	31	87E	559	
32	32	22F	1469	
33	33	5BD	349	
34	34	15D	-1346	
35	35	ABE	258	
36	36	102	-1857	
37	37	8BF	312	
38	38	138	1730	
39	39	6C2	263	
40	40	107	128	
41	41	080	-120	
42	42	F88	-1986	
43	43	83E	-303	
44	44	ED1	2047	
45	45	7FF	-354	
46	46	E9E	448	
47	47	1C0	-567	
48	48	DC9	-1089	
49	49	BBF	-581	
50	50	DBB	-2048	
51	51	800	-734	
52	52	D22	-64	
53	53	FC0	-722	
54	54	D2E	639	
55	55	27F	-714	
56	56	D36	2047	
57	57	7FF	-714	
58	58	D36	-1472	
59	59	A40	-755	
60	60	D0D	-704	
61	61	D40	-657	
62	62	D6F	448	
63	63	1C0	-618	
64	64	D96	-1984	
65	65	840	-512	
66	66	E00	959	
67	67	3BF	-398	
68	68	E72	-65	
69	69	FBF	-220	
70	70	F24	510	
71	71	1FE	-75	
72	72	FB5	-898	
73	73	C7E	37	
74	74	025	-577	
75	75	DBF	268	
76	76	10C	-447	
77	77	E41	689	
78	78	2B1	-1534	
79	79	A02	797	
80	80	31D	-1983	
81	81	841	866	
82	82	362	-2048	
83	83	800	810	
84	84	32A	1919	
85	85	77F	730	
86	86	2DA	319	
87	87	13F	831	
88	88	33F	895	
89	89	37F	745	
90	90	2E9	1281	
91	91	501	776	
92	92	308	-1022	
93	93	C02	878	
94	94	36E	897	
95	95	381	616	
96	96	268	1150	
97	97	47E	283	
98	98	11B	765	
99	99	2FD	104	
100	100	068	-1	
101	101	FFF	-62	
102	102	FC2	-961	
103	103	C3F	-143	
104	104	F71	383	
105	105	17F	-351	
106	106	EA1	-640	
107	107	D80	-366	
108	108	E92	450	
109	109	1C2	-398	
110	110	E72	-638	
111	111	D82	-537	
112	112	DE7	-704	
113	113	D40	-680	
114	114	D58	64	
115	115	040	-804	
116	116	CDC	-960	
117	117	C40	-780	
118	118	CF4	-64	
119	119	FC0	-736	
120	120	D20	640	
121	121	280	-755	
122	122	D0D	-320	
123	123	EC0	-683	
124	124	D55	-1664	
125	125	980	-621	
126	126	D93	-448	
127	127	E40	-503	
128	128	E09	-1665	
129	129	97F	-337	
130	130	EAF	-1281	
131	131	AFF	-220	
132	132	F24	-706	
133	133	D3E	-70	
134	134	FBA	-65	
135	135	FBF	244	
136	136	0F4	834	
137	137	342	585	
138	138	249	1026	
139	139	402	740	
140	140	2E4	-832	
141	141	CC0	699	
142	142	2BB	-451	
143	143	E3D	550	
144	144	226	-772	
145	145	CFC	570	
146	146	23A	-323	
147	147	EBD	619	
148	148	26B	1278	
149	149	4FE	696	
150	150	2B8	-256	
151	151	F00	804	
152	152	324	1662	
153	153	67E	542	
154	154	21E	-1346	
155	155	ABE	474	
156	156	1DA	-894	
157	157	C82	679	
158	158	2A7	-958	
159	159	C42	458	
160	160	1CA	-1537	
161	161	9FF	232	
162	162	0E8	-1727	
163	163	941	195	
164	164	0C3	320	
165	165	140	-175	
166	166	F51	-1345	
167	167	ABF	-423	
168	168	E59	-1792	
169	169	900	-505	
170	170	E07	2047	
171	171	7FF	-529	
172	172	DEF	1344	
173	173	540	-703	
174	174	D41	-1601	
175	175	9BF	-642	
176	176	D7E	191	
177	177	0BF	-705	
178	178	D3F	1408	
179	179	580	-796	
180	180	CE4	-192	
181	181	F40	-723	
182	182	D2D	320	
183	183	140	-734	
184	184	D22	-640	
185	185	D80	-672	
186	186	D60	-896	
187	187	C80	-560	
188	188	DD0	639	
189	189	27F	-393	
190	190	E77	575	
191	191	23F	-285	
192	192	EE3	1087	
193	193	43F	-173	
194	194	F53	1918	
195	195	77E	-4	
196	196	FFC	-514	
197	197	DFE	154	
198	198	09A	1149	
199	199	47D	306	
200	200	132	1726	
201	201	6BE	560	
202	202	230	320	
203	203	140	746	
204	204	2EA	447	
205	205	1BF	670	
206	206	29E	-1536	
207	207	A00	881	
208	208	371	1217	
209	209	4C1	839	
210	210	347	255	
211	211	0FF	653	
212	212	28D	-192	
213	213	F40	711	
214	214	2C7	-1090	
215	215	BBE	573	
216	216	23D	-1475	
217	217	A3D	344	
218	218	158	1664	
219	219	680	466	
220	220	1D2	-1981	
221	221	843	539	
222	222	21B	959	
223	223	3BF	126	
224	224	07E	-1667	
225	225	97D	-160	
226	226	F60	-322	
227	227	EBE	-142	
228	228	F72	255	
229	229	0FF	-344	
230	230	EA8	959	
231	231	3BF	-456	
232	232	E38	63	
233	233	03F	-583	
234	234	DB9	-1280	
235	235	B00	-669	
236	236	D63	512	
237	237	200	-740	
238	238	D1C	1791	
239	239	6FF	-717	
240	240	D33	-1728	
241	241	940	-762	
242	242	D06	1920	
243	243	780	-724	
244	244	D2C	1152	
245	245	480	-720	
246	246	D30	-64	
247	247	FC0	-636	
248	248	D84	1983	
249	249	7BF	-474	
250	250	E26	1151	
251	251	47F	-408	
252	252	E68	-769	
253	253	CFF	-293	
254	254	EDB	-321	
255	255	EBF	-114	
256	256	F8E	638	
257	257	27E	47	
258	258	02F	1087	
259	259	43F	316	
260	260	13C	1729	
261	261	6C1	533	
262	262	215	575	
263	263	23F	554	
264	264	22A	-1152	
265	265	B80	809	
266	266	329	-2047	
267	267	801	770	
268	268	302	-833	
269	269	CBF	659	
270	270	293	-449	
271	271	E3F	826	
272	272	33A	1151	
273	273	47F	757	
274	274	2F5	1345	
275	275	541	776	
276	276	308	-510	
277	277	E02	879	
278	278	36F	898	
279	279	382	739	
280	280	2E3	770	
281	281	302	621	
282	282	26D	1987	
283	283	7C3	519	
284	284	207	770	
285	285	302	230	
286	286	0E6	-449	
287	287	E3F	-150	
288	288	F6A	-706	
289	289	D3E	-304	
290	290	ED0	-1473	
291	291	A3F	-421	
292	292	E5B	-128	
293	293	F80	-552	
294	294	DD8	1792	
295	295	700	-655	
296	296	D71	-1408	
297	297	A80	-732	
298	298	D24	-448	
299	299	E40	-711	
300	300	D39	64	
301	301	040	-739	
302	302	D1D	383	
303	303	17F	-708	
304	304	D3C	-1920	
305	305	880	-693	
306	306	D4B	128	
307	307	080	-672	
308	308	D60	1536	
309	309	600	-611	
310	310	D9D	-1729	
311	311	93F	-452	
312	312	E3C	1471	
313	313	5BF	-348	
314	314	EA4	1983	
315	315	7BF	-236	
316	316	F14	-1474	
317	317	A3E	-68	
318	318	FBC	-706	
319	319	D3E	122	
320	320	07A	382	
321	321	17E	199	
322	322	0C7	1661	
323	323	67D	364	
324	324	16C	-1091	
325	325	BBD	466	
326	326	1D2	1213	
327	327	4BD	524	
328	328	20C	1917	
329	329	77D	609	
330	330	261	125	
331	331	07D	614	
332	332	266	638	
333	333	27E	686	
334	334	2AE	-256	
335	335	F00	806	
336	336	326	-1922	
337	337	87E	547	
338	338	223	-515	
339	339	DFD	398	
340	340	18E	1023	
341	341	3FF	575	
342	342	23F	260	
343	343	104	645	
344	344	285	-254	
345	345	F02	387	
346	346	183	-66	
347	347	FBE	-24	
348	348	FE8	1535	
349	349	5FF	-251	
350	350	F05	-1857	
351	351	8BF	-269	
352	352	EF3	255	
353	353	0FF	-417	
354	354	E5F	704	
355	355	2C0	-613	
356	356	D9B	-384	
357	357	E80	-674	
358	358	D5E	-1472	
359	359	A40	-749	
360	360	D13	-512	
361	361	E00	-723	
362	362	D2D	192	
363	363	0C0	-775	
364	364	CF9	-704	
365	365	D40	-740	
366	366	D1C	1280	
367	367	500	-701	
368	368	D43	512	
369	369	200	-675	
370	370	D5D	-896	
371	371	C80	-617	
372	372	D97	-256	
373	373	F00	-447	
374	374	E41	191	
375	375	0BF	-352	
376	376	EA0	-1792	
377	377	900	-30	
378	378	FE2	770	
379	379	302	193	
380	380	0C1	1280	
381	381	500	235	
382	382	0EB	-127	
383	383	F81	570	
384	384	23A	-767	
385	385	D01	668	
386	386	29C	1214	
387	387	4BE	575	
388	388	23F	-320	
389	389	EC0	878	
390	390	36E	322	
391	391	142	982	
392	392	3D6	576	
393	393	240	815	
394	394	32F	-1985	
395	395	83F	646	
396	396	286	-64	
397	397	FC0	714	
398	398	2CA	-130	
399	399	F7E	527	
400	400	20F	-132	
401	401	F7C	438	
402	402	1B6	-1282	
403	403	AFE	332	
404	404	14C	255	
405	405	0FF	354	
406	406	162	258	
407	407	102	471	
408	408	1D7	322	
409	409	142	230	
410	410	0E6	-705	
411	411	D3F	-231	
412	412	F19	-1537	
413	413	9FF	-423	
414	414	E59	-1472	
415	415	A40	-499	
416	416	E0D	1856	
417	417	740	-635	
418	418	D85	-832	
419	419	CC0	-681	
420	420	D57	1535	
421	421	5FF	-709	
422	422	D3B	-449	
423	423	E3F	-719	
424	424	D31	-1280	
425	425	B00	-761	
426	426	D07	1344	
427	427	540	-727	
428	428	D29	960	
429	429	3C0	-725	
430	430	D2B	-1024	
431	431	C00	-672	
432	432	D60	-256	
433	433	F00	-567	
434	434	DC9	2047	
435	435	7FF	-388	
436	436	E7C	1407	
437	437	57F	-278	
438	438	EEA	1407	
439	439	57F	-173	
440	440	F53	-1218	
441	441	B3E	45	
442	442	02D	958	
443	443	3BE	152	
444	444	098	1151	
445	445	47F	407	
446	446	197	704	
447	447	2C0	637	
448	448	27D	-1217	
449	449	B3F	625	
450	450	271	-320	
451	451	EC0	710	
452	452	2C6	2046	
453	453	7FE	597	
454	454	255	-706	
455	455	D3E	666	
456	456	29A	1408	
457	457	580	806	
458	458	326	-1089	
459	459	BBF	681	
460	460	2A9	-511	
461	461	E01	729	
462	462	2D9	-253	
463	463	F03	782	
464	464	30E	961	
465	465	3C1	558	
466	466	22E	958	
467	467	3BE	187	
468	468	0BB	-1474	
469	469	A3E	8	
470	470	008	1022	
471	471	3FE	-91	
472	472	FA5	-450	
473	473	E3E	-206	
474	474	F32	1919	
475	475	77F	-414	
476	476	E62	-576	
477	477	DC0	-574	
478	478	DC2	-705	
479	479	D3F	-584	
480	480	DB8	-1792	
481	481	900	-672	
482	482	D60	256	
483	483	100	-731	
484	484	D25	895	
485	485	37F	-712	
486	486	D38	1791	
487	487	6FF	-726	
488	488	D2A	-704	
489	489	D40	-751	
490	490	D11	-1408	
491	491	A80	-668	
492	492	D64	832	
493	493	340	-627	
494	494	D8D	1599	
495	495	63F	-479	
496	496	E21	2047	
497	497	7FF	-396	
498	498	E74	-129	
499	499	F7F	-285	
500	500	EE3	-1	
501	501	FFF	-116	
502	502	F8C	1662	
503	503	67E	33	
504	504	021	-897	
505	505	C7F	273	
506	506	111	-703	
507	507	D41	698	
508	508	2BA	-1087	
509	509	BC1	680	
510	510	2A8	-323	
511	511	EBD	483	
512	512	1E3	-450	
513	513	E3E	655	
514	514	28F	704	
515	515	2C0	824	
516	516	338	-1025	
517	517	BFF	750	
518	518	2EE	-1984	
519	519	840	711	
520	520	2C7	-834	
521	521	CBE	618	
522	522	26A	957	
523	523	3BD	395	
524	524	18B	-578	
525	525	DBE	387	
526	526	183	510	
527	527	1FE	268	
528	528	10C	1406	
529	529	57E	139	
530	530	08B	1406	
531	531	57E	-8	
532	532	FF8	-65	
533	533	FBF	-161	
534	534	F5F	959	
535	535	3BF	-285	
536	536	EE3	831	
537	537	33F	-410	
538	538	E66	1472	
539	539	5C0	-568	
540	540	DC8	1344	
541	541	540	-675	
542	542	D5D	-896	
543	543	C80	-691	
544	544	D4D	0	
545	545	000	-730	
546	546	D26	320	
547	547	140	-738	
548	548	D1E	127	
549	549	07F	-716	
550	550	D34	-1728	
551	551	940	-764	
552	552	D04	-128	
553	553	F80	-679	
554	554	D59	-1856	
555	555	8C0	-626	
556	556	D8E	-129	
557	557	F7F	-451	
558	558	E3D	-1729	
559	559	93F	-348	
560	560	EA4	1983	
561	561	7BF	-229	
562	562	F1B	-1026	
563	563	BFE	-69	
564	564	FBB	-832	
565	565	CC0	197	
566	566	0C5	257	
567	567	101	464	
568	568	1D0	1982	
569	569	7BE	409	
570	570	199	1214	
571	571	4BE	512	
572	572	200	449	
573	573	1C1	861	
574	574	35D	-1534	
575	575	A02	925	
576	576	39D	-1982	
577	577	842	897	
578	578	381	64	
579	579	040	810	
580	580	32A	-1601	
581	581	9BF	670	
582	582	29E	-832	
583	583	CC0	723	
584	584	2D3	192	
585	585	0C0	589	
586	586	24D	1281	
587	587	501	609	
588	588	261	512	
589	589	200	433	
590	590	1B1	255	
591	591	0FF	213	
592	592	0D5	1729	
593	593	6C1	227	
594	594	0E3	1024	
595	595	400	-168	
596	596	F58	-1281	
597	597	AFF	-438	
598	598	E4A	-833	
599	599	CBF	-401	
600	600	E6F	255	
601	601	0FF	-521	
602	602	DF7	1280	
603	603	500	-701	
604	604	D43	-1345	
605	605	ABF	-642	
606	606	D7E	191	
607	607	0BF	-706	
608	608	D3E	1920	
609	609	780	-799	
610	610	CE1	-128	
611	611	F80	-739	
612	612	D1D	1279	
613	613	4FF	-643	
614	614	D7D	1152	
615	615	480	-677	
616	616	D5B	-448	
617	617	E40	-556	
618	618	DD4	639	
619	619	27F	-400	
620	620	E70	191	
621	621	0BF	-291	
622	622	EDD	1407	
623	623	57F	-176	
624	624	F50	1406	
625	625	57E	-7	
626	626	FF9	-1857	
627	627	8BF	255	
628	628	0FF	-1791	
629	629	901	466	
630	630	1D2	-1409	
631	631	A7F	549	
632	632	225	-1600	
633	633	9C0	655	
634	634	28F	1598	
635	635	63E	624	
636	636	270	444	
637	637	1BC	568	
638	638	238	1598	
639	639	63E	759	
640	640	2F7	512	
641	641	200	814	
642	642	32E	-1729	
643	643	93F	726	
644	644	2D6	0	
645	645	000	800	
646	646	320	-1086	
647	647	BC2	868	
648	648	364	577	
649	649	241	550	
650	650	226	1024	
651	651	400	290	
652	652	122	-1471	
653	653	A41	295	
654	654	127	511	
655	655	1FF	-38	
656	656	FDA	-450	
657	657	E3E	-238	
658	658	F12	255	
659	659	0FF	-327	
660	660	EB9	576	
661	661	240	-508	
662	662	E04	639	
663	663	27F	-580	
664	664	DBC	-1344	
665	665	AC0	-669	
666	666	D63	1024	
667	667	400	-736	
668	668	D20	1791	
669	669	6FF	-721	
670	670	D2F	-1920	
671	671	880	-760	
672	672	D08	1920	
673	673	780	-727	
674	674	D29	832	
675	675	340	-662	
676	676	D6A	128	
677	677	080	-622	
678	678	D92	959	
679	679	3BF	-461	
680	680	E33	63	
681	681	03F	-378	
682	682	E86	767	
683	683	2FF	-236	
684	684	F14	191	
685	685	0BF	-117	
686	686	F8B	62	
687	687	03E	55	
688	688	037	1406	
689	689	57E	159	
690	690	09F	1983	
691	691	7BF	408	
692	692	198	321	
693	693	141	763	
694	694	2FB	-832	
695	695	CC0	828	
696	696	33C	127	
697	697	07F	641	
698	698	281	1664	
699	699	680	775	
700	700	307	575	
701	701	23F	758	
702	702	2F6	-1408	
703	703	A80	780	
704	704	30C	62	
705	705	03E	620	
706	706	26C	701	
707	707	2BD	472	
708	708	1D8	254	
709	709	0FE	390	
710	710	186	703	
711	711	2BF	362	
712	712	16A	-381	
713	713	E83	452	
714	714	1C4	-829	
715	715	CC3	267	
716	716	10B	1471	
717	717	5BF	-158	
718	718	F62	-1218	
719	719	B3E	-302	
720	720	ED2	-1217	
721	721	B3F	-351	
722	722	EA1	512	
723	723	200	-576	
724	724	DC0	-1217	
725	725	B3F	-587	
726	726	DB5	1664	
727	727	680	-678	
728	728	D5A	384	
729	729	180	-773	
730	730	CFB	-192	
731	731	F40	-749	
732	732	D13	383	
733	733	17F	-710	
734	734	D3A	-1472	
735	735	A40	-760	
736	736	D08	-512	
737	737	E00	-657	
738	738	D6F	704	
739	739	2C0	-612	
740	740	D9C	1919	
741	741	77F	-451	
742	742	E3D	1279	
743	743	4FF	-330	
744	744	EB6	63	
745	745	03F	-226	
746	746	F1E	638	
747	747	27E	-67	
748	748	FBD	-770	
749	749	CFE	39	
750	750	027	-321	
751	751	EBF	274	
752	752	112	-319	
753	753	EC1	694	
754	754	2B6	-1278	
755	755	B02	783	
756	756	30F	-639	
757	757	D81	876	
758	758	36C	1345	
759	759	541	947	
760	760	3B3	258	
761	761	102	908	
762	762	38C	1152	
763	763	480	807	
764	764	327	-1473	
765	765	A3F	662	
766	766	296	-640	
767	767	D80	718	
768	768	2CE	768	
769	769	300	591	
770	770	24F	1537	
771	771	601	696	
772	772	2B8	898	
773	773	382	518	
774	774	206	2046	
775	775	7FE	152	
776	776	098	1214	
777	777	4BE	-44	
778	778	FD4	704	
779	779	2C0	-192	
780	780	F40	511	
781	781	1FF	-286	
782	782	EE2	383	
783	783	17F	-407	
784	784	E69	576	
785	785	240	-550	
786	786	DDA	832	
787	787	340	-676	
788	788	D5C	-1664	
789	789	980	-755	
790	790	D0D	-64	
791	791	FC0	-725	
792	792	D2B	576	
793	793	240	-785	
794	794	CEF	-1088	
795	795	BC0	-737	
796	796	D1F	1216	
797	797	4C0	-755	
798	798	D0D	-640	
799	799	D80	-681	
800	800	D57	-1408	
801	801	A80	-619	
802	802	D95	-448	
803	803	E40	-506	
804	804	E06	-1345	
805	805	ABF	-344	
806	806	EA8	1728	
807	807	6C0	-85	
808	808	FAB	-510	
809	809	E02	195	
810	810	0C3	448	
811	811	1C0	290	
812	812	122	257	
813	813	101	554	
814	814	22A	1538	
815	815	602	806	
816	816	326	769	
817	817	301	642	
818	818	282	-515	
819	819	DFD	547	
820	820	223	-452	
821	821	E3C	567	
822	822	237	-1409	
823	823	A7F	706	
824	824	2C2	768	
825	825	300	811	
826	826	32B	-1921	
827	827	87F	668	
828	828	29C	-128	
829	829	F80	831	
830	830	33F	-1151	
831	831	B81	713	
832	832	2C9	831	
833	833	33F	489	
834	834	1E9	961	
835	835	3C1	486	
836	836	1E6	769	
837	837	301	444	
838	838	1BC	1473	
839	839	5C1	219	
840	840	0DB	383	
841	841	17F	-143	
842	842	F71	1151	
843	843	47F	-416	
844	844	E60	-1344	
845	845	AC0	-507	
846	846	E05	-1921	
847	847	87F	-522	
848	848	DF6	448	
849	849	1C0	-683	
850	850	D55	1920	
851	851	780	-767	
852	852	D01	-321	
853	853	EBF	-706	
854	854	D3E	1984	
855	855	7C0	-795	
856	856	CE5	-128	
857	857	F80	-726	
858	858	D2A	192	
859	859	0C0	-737	
860	860	D1F	-896	
861	861	C80	-671	
862	862	D61	-704	
863	863	D40	-554	
864	864	DD6	895	
865	865	37F	-389	
866	866	E7B	831	
867	867	33F	-284	
868	868	EE4	1087	
869	869	43F	-170	
870	870	F56	-1986	
871	871	83E	-5	
872	872	FFB	-706	
873	873	D3E	161	
874	874	0A1	1661	
875	875	67D	307	
876	876	133	2046	
877	877	7FE	493	
878	878	1ED	-383	
879	879	E81	810	
880	880	32A	-1342	
881	881	AC2	923	
882	882	39B	257	
883	883	101	950	
884	884	3B6	704	
885	885	2C0	819	
886	886	333	2047	
887	887	7FF	728	
888	888	2D8	192	
889	889	0C0	717	
890	890	2CD	-1153	
891	891	B7F	513	
892	892	201	-1731	
893	893	93D	346	
894	894	15A	1792	
895	895	700	468	
896	896	1D4	1795	
897	897	703	538	
898	898	21A	639	
899	899	27F	125	
900	900	07D	-1859	
901	901	8BD	-161	
902	902	F5F	-258	
903	903	EFE	-211	
904	904	F2D	-65	
905	905	FBF	-344	
906	906	EA8	831	
907	907	33F	-529	
908	908	DEF	-1	
909	909	FFF	-580	
910	910	DBC	-1408	
911	911	A80	-678	
912	912	D5A	704	
913	913	2C0	-745	
914	914	D17	1855	
915	915	73F	-718	
916	916	D32	-1985	
917	917	83F	-719	
918	918	D31	-1088	
919	919	BC0	-760	
920	920	D08	-960	
921	921	C40	-667	
922	922	D65	384	
923	923	180	-636	
924	924	D84	1919	
925	925	77F	-478	
926	926	E22	1407	
927	927	57F	-407	
928	928	E69	-577	
929	929	DBF	-292	
930	930	EDC	-321	
931	931	EBF	-113	
932	932	F8F	1214	
933	933	4BE	42	
934	934	02A	1471	
935	935	5BF	299	
936	936	12B	-1471	
937	937	A41	545	
938	938	221	1406	
939	939	57E	487	
940	940	1E7	317	
941	941	13D	621	
942	942	26D	193	
943	943	0C1	873	
944	944	369	-190	
945	945	F42	935	
946	946	3A7	-640	
947	947	D80	809	
948	948	329	-1729	
949	949	93F	656	
950	950	290	-1599	
951	951	9C1	857	
952	952	359	322	
953	953	142	887	
954	954	377	770	
955	955	302	671	
956	956	29F	-61	
957	957	FC3	659	
958	958	293	1284	
959	959	504	609	
960	960	261	-766	
961	961	D02	317	
962	962	13D	767	
963	963	2FF	-167	
964	964	F59	1598	
965	965	63E	-310	
966	966	ECA	-961	
967	967	C3F	-419	
968	968	E5D	-192	
969	969	F40	-561	
970	970	DCF	1728	
971	971	6C0	-665	
972	972	D67	-1280	
973	973	B00	-733	
974	974	D23	-576	
975	975	DC0	-723	
976	976	D2D	192	
977	977	0C0	-744	
978	978	D18	383	
979	979	17F	-711	
980	980	D39	-1537	
981	981	9FF	-706	
982	982	D3E	-320	
983	983	EC0	-673	
984	984	D5F	1984	
985	985	7C0	-613	
986	986	D9B	-1985	
987	987	83F	-455	
988	988	E39	1727	
989	989	6BF	-348	
990	990	EA4	-1921	
991	991	87F	-233	
992	992	F17	-1218	
993	993	B3E	-66	
994	994	FBE	-642	
995	995	D7E	118	
996	996	076	766	
997	997	2FE	204	
998	998	0CC	1533	
999	999	5FD	355	
1000	1000	163	-1219	
1001	1001	B3D	474	
1002	1002	1DA	765	
1003	1003	2FD	522	
1004	1004	20A	-1859	
1005	1005	8BD	619	
1006	1006	26B	61	
1007	1007	03D	616	
1008	1008	268	318	
1009	1009	13E	763	
1010	1010	2FB	64	
1011	1011	040	800	
1012	1012	320	1151	
1013	1013	47F	697	
1014	1014	2B9	-2048	
1015	1015	800	613	
1016	1016	265	-193	
1017	1017	F3F	390	
1018	1018	186	127	
1019	1019	07F	267	
1020	1020	10B	-319	
1021	1021	EC1	351	
1022	1022	15F	-769	
1023	1023	CFF	34	
1024	1024	022	1790	
1025	1025	6FE	-205	
1026	1026	F33	639	
1027	1027	27F	-277	
1028	1028	EEB	447	
1029	1029	1BF	-413	
1030	1030	E63	640	
1031	1031	280	-625	
1032	1032	D8F	-384	
1033	1033	E80	-679	
1034	1034	D59	-1409	
1035	1035	A7F	-649	
1036	1036	D77	384	
1037	1037	180	-762	
1038	1038	D06	1920	
1039	1039	780	-791	
1040	1040	CE9	-192	
1041	1041	F40	-737	
1042	1042	D1F	1151	
1043	1043	47F	-642	
1044	1044	D7E	1088	
1045	1045	440	-677	
1046	1046	D5B	-512	
1047	1047	E00	-555	
1048	1048	DD5	191	
1049	1049	0BF	-385	
1050	1050	E7F	447	
1051	1051	1BF	-351	
1052	1052	EA1	-1344	
1053	1053	AC0	-27	
1054	1054	FE5	578	
1055	1055	242	197	
1056	1056	0C5	1344	
1057	1057	540	239	
1058	1058	0EF	-255	
1059	1059	F01	575	
1060	1060	23F	-767	
1061	1061	D01	673	
1062	1062	2A1	1343	
1063	1063	53F	520	
1064	1064	208	-640	
1065	1065	D80	887	
1066	1066	377	258	
1067	1067	102	993	
1068	1068	3E1	0	
1069	1069	000	828	
1070	1070	33C	1919	
1071	1071	77F	658	
1072	1072	292	-512	
1073	1073	E00	722	
1074	1074	2D2	-66	
1075	1075	FBE	531	
1076	1076	213	-706	
1077	1077	D3E	516	
1078	1078	204	1281	
1079	1079	501	544	
1080	1080	220	-1600	
1081	1081	9C0	341	
1082	1082	155	-1983	
1083	1083	841	440	
1084	1084	1B8	-1918	
1085	1085	882	231	
1086	1086	0E7	-577	
1087	1087	DBF	-229	
1088	1088	F1B	-1345	
1089	1089	ABF	-430	
1090	1090	E52	-1728	
1091	1091	940	-501	
1092	1092	E0B	1600	
1093	1093	640	-638	
1094	1094	D82	-832	
1095	1095	CC0	-688	
1096	1096	D50	1599	
1097	1097	63F	-710	
1098	1098	D3A	-321	
1099	1099	EBF	-723	
1100	1100	D2D	-1408	
1101	1101	A80	-766	
1102	1102	D02	1536	
1103	1103	600	-734	
1104	1104	D22	1088	
1105	1105	440	-737	
1106	1106	D1F	-512	
1107	1107	E00	-630	
1108	1108	D8A	1152	
1109	1109	480	-568	
1110	1110	DC8	-1281	
1111	1111	AFF	-389	
1112	1112	E7B	1023	
1113	1113	3FF	-275	
1114	1114	EED	1343	
1115	1115	53F	-178	
1116	1116	F4E	-1154	
1117	1117	B7E	50	
1118	1118	032	830	
1119	1119	33E	151	
1120	1120	097	1279	
1121	1121	4FF	413	
1122	1122	19D	640	
1123	1123	280	693	
1124	1124	2B5	381	
1125	1125	17D	570	
1126	1126	23A	-1923	
