Sample in Buffer	Sample in Window	dac_data_q1	dac_data_i1	rx_frame_s	adc_valid	adc_data_q1	adc_data_i1	rx_data_i2_r2	rx_data_q1_r2	rx_data_i1_r2	rx_data_d	rx_data
0	0	3517	844	9	0	282	A41	2210	0	000	83	632	
1	1	3517	844	6	0	282	A41	2210	0	000	632	127	
2	2	3701	944	9	0	282	A41	2210	0	000	127	-1094	
3	3	3701	944	6	0	282	A41	2210	0	000	3002	105	
4	4	3901	1005	9	0	282	A41	2210	0	000	105	-1860	
5	5	3901	1005	6	0	282	A41	2210	0	000	2236	74	
6	6	13	1023	9	0	282	A41	2210	0	000	74	445	
7	7	13	1023	6	0	282	A41	2210	0	000	445	63	
8	8	221	999	9	0	282	A41	2210	0	000	63	-64	
9	9	221	999	6	0	282	A41	2210	0	000	4032	84	
10	10	419	934	9	0	282	A41	2210	0	000	84	962	
11	11	419	934	6	0	282	A41	2210	0	000	962	70	
12	12	600	829	9	0	282	A41	2210	0	000	70	517	
13	13	600	829	6	0	282	A41	2210	0	000	517	27	
14	14	756	690	9	0	282	A41	2210	0	000	27	74	
15	15	756	690	6	0	282	A41	2210	0	000	74	-209	
16	16	880	522	9	0	282	A41	2210	0	000	3887	-1397	
17	17	880	522	6	0	282	A41	2210	0	000	2699	-188	
18	18	968	332	9	0	282	A41	2210	0	000	3908	1863	
19	19	968	332	6	0	282	A41	2210	0	000	1863	107	
20	20	1015	128	9	0	282	A41	2210	0	000	107	71	
21	21	1015	128	6	0	282	A41	2210	0	000	71	92	
22	22	1020	4015	9	0	282	A41	2210	0	000	92	-438	
23	23	1020	4015	6	0	282	A41	2210	0	000	3658	-62	
24	24	983	3810	9	0	282	A41	2210	0	000	4034	-1397	
25	25	983	3810	6	0	282	A41	2210	0	000	2699	-167	
26	26	904	3616	9	0	282	A41	2210	0	000	3929	-377	
27	27	904	3616	6	0	282	A41	2210	0	000	3719	62	
28	28	788	3442	9	0	282	A41	2210	0	000	62	1606	
29	29	788	3442	6	0	282	A41	2210	0	000	1606	65	
30	30	639	3296	9	0	282	A41	2210	0	000	65	-1083	
31	31	639	3296	6	0	282	A41	2210	0	000	3013	83	
32	32	463	3183	9	0	282	A41	2210	0	000	83	581	
33	33	463	3183	6	0	282	A41	2210	0	000	581	-45	
34	34	268	3107	9	0	282	A41	2210	0	000	4051	-953	
35	35	268	3107	6	0	282	A41	2210	0	000	3143	-242	
36	36	62	3073	9	0	282	A41	2210	0	000	3854	644	
37	37	62	3073	6	0	282	A41	2210	0	000	644	-246	
38	38	3949	3082	9	0	282	A41	2210	0	000	3850	-1731	
39	39	3949	3082	6	0	282	A41	2210	0	000	2365	59	
40	40	3746	3133	9	0	282	A41	2210	0	000	59	-325	
41	41	3746	3133	6	0	282	A41	2210	0	000	3771	177	
42	42	3558	3224	9	0	282	A41	2210	0	000	177	762	
43	43	3558	3224	6	0	282	A41	2210	0	000	762	102	
44	44	3392	3351	9	0	282	A41	2210	0	000	102	1016	
45	45	3392	3351	6	0	282	A41	2210	0	000	1016	88	
46	46	3256	3510	9	0	282	A41	2210	0	000	88	311	
47	47	3256	3510	6	0	282	A41	2210	0	000	311	79	
48	48	3154	3692	9	0	282	A41	2210	0	000	79	1206	
49	49	3154	3692	6	0	282	A41	2210	0	000	1206	0	
50	50	3092	3892	9	0	282	A41	2210	0	000	0	-331	
51	51	3092	3892	6	0	282	A41	2210	0	000	3765	14	
52	52	3072	4	9	0	282	A41	2210	0	000	14	-1035	
53	53	3072	4	6	0	282	A41	2210	0	000	3061	71	
54	54	3094	212	9	0	282	A41	2210	0	000	71	181	
55	55	3094	212	6	0	282	A41	2210	0	000	181	102	
56	56	3158	411	9	0	282	A41	2210	0	000	102	-1866	
57	57	3158	411	6	0	282	A41	2210	0	000	2230	65	
58	58	3261	593	9	0	282	A41	2210	0	000	65	1526	
59	59	3261	593	6	0	282	A41	2210	0	000	1526	16	
60	60	3399	750	9	0	282	A41	2210	0	000	16	-201	
61	61	3399	750	6	0	282	A41	2210	0	000	3895	30	
62	62	3565	876	9	0	282	A41	2210	0	000	30	-264	
63	63	3565	876	6	0	282	A41	2210	0	000	3832	123	
64	64	3754	965	9	0	282	A41	2210	0	000	123	122	
65	65	3754	965	6	0	282	A41	2210	0	000	122	105	
66	66	3958	1014	9	0	282	A41	2210	0	000	105	380	
67	67	3958	1014	6	0	282	A41	2210	0	000	380	99	
68	68	71	1021	9	0	282	A41	2210	0	000	99	638	
69	69	71	1021	6	0	282	A41	2210	0	000	638	110	
70	70	276	985	9	0	282	A41	2210	0	000	110	384	
71	71	276	985	6	0	282	A41	2210	0	000	384	114	
72	72	471	908	9	0	282	A41	2210	0	000	114	578	
73	73	471	908	6	0	282	A41	2210	0	000	578	115	
74	74	646	794	9	0	282	A41	2210	0	000	115	-1978	
75	75	646	794	6	0	282	A41	2210	0	000	2118	20	
76	76	794	646	9	0	282	A41	2210	0	000	20	1355	
77	77	794	646	6	0	282	A41	2210	0	000	1355	-250	
78	78	908	471	9	0	282	A41	2210	0	000	3846	-692	
79	79	908	471	6	0	282	A41	2210	0	000	3404	-210	
80	80	985	277	9	0	282	A41	2210	0	000	3886	588	
81	81	985	277	6	0	282	A41	2210	0	000	588	-217	
82	82	1021	71	9	0	282	A41	2210	0	000	3879	-1587	
83	83	1021	71	6	0	282	A41	2210	0	000	2509	-251	
84	84	1014	3958	9	0	282	A41	2210	0	000	3845	1291	
85	85	1014	3958	6	0	282	A41	2210	0	000	1291	-166	
86	86	965	3755	9	0	282	A41	2210	0	000	3930	-1335	
87	87	965	3755	6	0	282	A41	2210	0	000	2761	-12	
88	88	876	3566	9	0	282	A41	2210	0	000	4084	1289	
89	89	876	3566	6	0	282	A41	2210	0	000	1289	-67	
90	90	750	3399	9	0	282	A41	2210	0	000	4029	1416	
91	91	750	3399	6	0	282	A41	2210	0	000	1416	-91	
92	92	593	3261	9	0	282	A41	2210	0	000	4005	-1527	
93	93	593	3261	6	0	282	A41	2210	0	000	2569	-182	
94	94	411	3158	9	0	282	A41	2210	0	000	3914	265	
95	95	411	3158	6	0	282	A41	2210	0	000	265	-300	
96	96	212	3094	9	0	282	A41	2210	0	000	3796	1093	
97	97	212	3094	6	0	282	A41	2210	0	000	1093	-171	
98	98	4	3072	9	0	282	A41	2210	0	000	3925	-1153	
99	99	4	3072	6	0	282	A41	2210	0	000	2943	31	
100	100	3892	3092	9	0	282	A41	2210	0	000	31	-1540	
101	101	3892	3092	6	0	282	A41	2210	0	000	2556	110	
102	102	3693	3154	9	0	282	A41	2210	0	000	110	1787	
103	103	3693	3154	6	0	282	A41	2210	0	000	1787	37	
104	104	3510	3256	9	0	282	A41	2210	0	000	37	-391	
105	105	3510	3256	6	0	282	A41	2210	0	000	3705	117	
106	106	3352	3392	9	0	282	A41	2210	0	000	117	1783	
107	107	3352	3392	6	0	282	A41	2210	0	000	1783	59	
108	108	3224	3558	9	0	282	A41	2210	0	000	59	-138	
109	109	3224	3558	6	0	282	A41	2210	0	000	3958	105	
110	110	3133	3746	9	0	282	A41	2210	0	000	105	566	
111	111	3133	3746	6	0	282	A41	2210	0	000	566	71	
112	112	3082	3949	9	0	282	A41	2210	0	000	71	1397	
113	113	3082	3949	6	0	282	A41	2210	0	000	1397	72	
114	114	3073	61	9	0	282	A41	2210	0	000	72	180	
115	115	3073	61	6	0	282	A41	2210	0	000	180	62	
116	116	3107	268	9	0	282	A41	2210	0	000	62	-843	
117	117	3107	268	6	0	282	A41	2210	0	000	3253	86	
118	118	3182	463	9	0	282	A41	2210	0	000	86	245	
119	119	3182	463	6	0	282	A41	2210	0	000	245	124	
120	120	3295	639	9	0	282	A41	2210	0	000	124	-1802	
121	121	3295	639	6	0	282	A41	2210	0	000	2294	48	
122	122	3442	788	9	0	282	A41	2210	0	000	48	-73	
123	123	3442	788	6	0	282	A41	2210	0	000	4023	106	
124	124	3616	904	9	0	282	A41	2210	0	000	106	121	
125	125	3616	904	6	0	282	A41	2210	0	000	121	95	
126	126	3809	983	9	0	282	A41	2210	0	000	95	315	
127	127	3809	983	6	0	282	A41	2210	0	000	315	65	
128	128	4015	1020	9	0	282	A41	2210	0	000	65	894	
129	129	4015	1020	6	0	282	A41	2210	0	000	894	-1	
130	130	128	1015	9	0	282	A41	2210	0	000	4095	-1726	
131	131	128	1015	6	0	282	A41	2210	0	000	2370	-133	
132	132	332	968	9	0	282	A41	2210	0	000	3963	-1853	
133	133	332	968	6	0	282	A41	2210	0	000	2243	-96	
134	134	521	881	9	0	282	A41	2210	0	000	4000	-505	
135	135	521	881	6	0	282	A41	2210	0	000	3591	-148	
136	136	689	756	9	0	282	A41	2210	0	000	3948	1418	
137	137	689	756	6	0	282	A41	2210	0	000	1418	-257	
138	138	829	600	9	0	282	A41	2210	0	000	3839	-503	
139	139	829	600	6	0	282	A41	2210	0	000	3593	-133	
140	140	933	419	9	0	282	A41	2210	0	000	3963	-1273	
141	141	933	419	6	0	282	A41	2210	0	000	2823	105	
142	142	999	221	9	0	282	A41	2210	0	000	105	839	
143	143	999	221	6	0	282	A41	2210	0	000	839	161	
144	144	1023	13	9	0	282	A41	2210	0	000	161	9	
145	145	1023	13	6	0	282	A41	2210	0	000	9	-9	
146	146	1005	3901	9	0	282	A41	2210	0	000	4087	-2037	
147	147	1005	3901	6	0	282	A41	2210	0	000	2059	-92	
148	148	944	3701	9	0	282	A41	2210	0	000	4004	201	
149	149	944	3701	6	0	282	A41	2210	0	000	201	-90	
150	150	845	3517	9	0	282	A41	2210	0	000	4006	-117	
151	151	845	3517	6	0	282	A41	2210	0	000	3979	-157	
152	152	710	3358	9	0	282	A41	2210	0	000	3939	1546	
153	153	710	3358	6	0	282	A41	2210	0	000	1546	-188	
154	154	545	3229	9	0	282	A41	2210	0	000	3908	1670	
155	155	545	3229	6	0	282	A41	2210	0	000	1670	-46	
156	156	358	3136	9	0	282	A41	2210	0	000	4050	1221	
157	157	358	3136	6	0	282	A41	2210	0	000	1221	-78	
158	158	155	3084	9	0	282	A41	2210	0	000	4018	771	
159	159	155	3084	6	0	282	A41	2210	0	000	771	-12	
160	160	4043	3073	9	0	282	A41	2210	0	000	4084	578	
161	161	4043	3073	6	0	282	A41	2210	0	000	578	-94	
162	162	3836	3105	9	0	282	A41	2210	0	000	4002	-1411	
163	163	3836	3105	6	0	282	A41	2210	0	000	2685	53	
164	164	3640	3178	9	0	282	A41	2210	0	000	53	1594	
165	165	3640	3178	6	0	282	A41	2210	0	000	1594	72	
166	166	3464	3290	9	0	282	A41	2210	0	000	72	-1543	
167	167	3464	3290	6	0	282	A41	2210	0	000	2553	12	
168	168	3313	3435	9	0	282	A41	2210	0	000	12	-137	
169	169	3313	3435	6	0	282	A41	2210	0	000	3959	125	
170	170	3195	3608	9	0	282	A41	2210	0	000	125	1462	
171	171	3195	3608	6	0	282	A41	2210	0	000	1462	94	
172	172	3115	3801	9	0	282	A41	2210	0	000	94	1333	
173	173	3115	3801	6	0	282	A41	2210	0	000	1333	122	
174	174	3076	4006	9	0	282	A41	2210	0	000	122	1909	
175	175	3076	4006	6	0	282	A41	2210	0	000	1909	98	
176	176	3079	119	9	0	282	A41	2210	0	000	98	2036	
177	177	3079	119	6	0	282	A41	2210	0	000	2036	124	
178	178	3124	323	9	0	282	A41	2210	0	000	124	181	
179	179	3124	323	6	0	282	A41	2210	0	000	181	16	
180	180	3210	513	9	0	282	A41	2210	0	000	16	-651	
181	181	3210	513	6	0	282	A41	2210	0	000	3445	120	
182	182	3333	683	9	0	282	A41	2210	0	000	120	758	
183	183	3333	683	6	0	282	A41	2210	0	000	758	61	
184	184	3487	823	9	0	282	A41	2210	0	000	61	-392	
185	185	3487	823	6	0	282	A41	2210	0	000	3704	80	
186	186	3667	930	9	0	282	A41	2210	0	000	80	249	
187	187	3667	930	6	0	282	A41	2210	0	000	249	122	
188	188	3865	997	9	0	282	A41	2210	0	000	122	251	
189	189	3865	997	6	0	282	A41	2210	0	000	251	111	
190	190	4072	1023	9	0	282	A41	2210	0	000	111	381	
191	191	4072	1023	6	0	282	A41	2210	0	000	381	113	
192	192	185	1007	9	0	282	A41	2210	0	000	113	319	
193	193	185	1007	6	0	282	A41	2210	0	000	319	114	
194	194	385	948	9	0	282	A41	2210	0	000	114	897	
195	195	385	948	6	0	282	A41	2210	0	000	897	124	
196	196	570	850	9	0	282	A41	2210	0	000	124	131	
197	197	570	850	6	0	282	A41	2210	0	000	131	108	
198	198	731	716	9	0	282	A41	2210	0	000	108	1927	
199	199	731	716	6	0	282	A41	2210	0	000	1927	4	
200	200	861	553	9	0	282	A41	2210	0	000	4	1675	
201	201	861	553	6	0	282	A41	2210	0	000	1675	-220	
202	202	955	366	9	0	282	A41	2210	0	000	3876	-1781	
203	203	955	366	6	0	282	A41	2210	0	000	2315	-233	
204	204	1010	165	9	0	282	A41	2210	0	000	3863	-824	
205	205	1010	165	6	0	282	A41	2210	0	000	3272	0	
206	206	1023	4052	9	0	282	A41	2210	0	000	0	-441	
207	207	1023	4052	6	0	282	A41	2210	0	000	3655	117	
208	208	992	3845	9	0	282	A41	2210	0	000	117	-1208	
209	209	992	3845	6	0	282	A41	2210	0	000	2888	79	
210	210	921	3649	9	0	282	A41	2210	0	000	79	71	
211	211	921	3649	6	0	282	A41	2210	0	000	71	43	
212	212	811	3471	9	0	282	A41	2210	0	000	43	-58	
213	213	811	3471	6	0	282	A41	2210	0	000	4038	105	
214	214	667	3319	9	0	282	A41	2210	0	000	105	1095	
215	215	667	3319	6	0	282	A41	2210	0	000	1095	-62	
216	216	495	3200	9	0	282	A41	2210	0	000	4034	-1015	
217	217	495	3200	6	0	282	A41	2210	0	000	3081	-244	
218	218	303	3118	9	0	282	A41	2210	0	000	3852	710	
219	219	303	3118	6	0	282	A41	2210	0	000	710	-233	
220	220	98	3076	9	0	282	A41	2210	0	000	3863	-1664	
221	221	98	3076	6	0	282	A41	2210	0	000	2432	84	
222	222	3985	3078	9	0	282	A41	2210	0	000	84	190	
223	223	3985	3078	6	0	282	A41	2210	0	000	190	143	
224	224	3781	3121	9	0	282	A41	2210	0	000	143	572	
225	225	3781	3121	6	0	282	A41	2210	0	000	572	125	
226	226	3590	3205	9	0	282	A41	2210	0	000	125	-1350	
227	227	3590	3205	6	0	282	A41	2210	0	000	2746	103	
228	228	3419	3327	9	0	282	A41	2210	0	000	103	1208	
229	229	3419	3327	6	0	282	A41	2210	0	000	1208	107	
230	230	3277	3480	9	0	282	A41	2210	0	000	107	1207	
231	231	3277	3480	6	0	282	A41	2210	0	000	1207	90	
232	232	3169	3659	9	0	282	A41	2210	0	000	90	822	
233	233	3169	3659	6	0	282	A41	2210	0	000	822	74	
234	234	3100	3856	9	0	282	A41	2210	0	000	74	245	
235	235	3100	3856	6	0	282	A41	2210	0	000	245	25	
236	236	3072	4063	9	0	282	A41	2210	0	000	25	-11	
237	237	3072	4063	6	0	282	A41	2210	0	000	4085	98	
238	238	3087	176	9	0	282	A41	2210	0	000	98	-1547	
239	239	3087	176	6	0	282	A41	2210	0	000	2549	102	
240	240	3144	377	9	0	282	A41	2210	0	000	102	-1867	
241	241	3144	377	6	0	282	A41	2210	0	000	2229	114	
242	242	3240	562	9	0	282	A41	2210	0	000	114	1462	
243	243	3240	562	6	0	282	A41	2210	0	000	1462	15	
244	244	3372	724	9	0	282	A41	2210	0	000	15	-329	
245	245	3372	724	6	0	282	A41	2210	0	000	3767	81	
246	246	3535	856	9	0	282	A41	2210	0	000	81	441	
247	247	3535	856	6	0	282	A41	2210	0	000	441	69	
248	248	3720	952	9	0	282	A41	2210	0	000	69	-1990	
249	249	3720	952	6	0	282	A41	2210	0	000	2106	88	
250	250	3922	1009	9	0	282	A41	2210	0	000	88	1020	
251	251	3922	1009	6	0	282	A41	2210	0	000	1020	11	
252	252	34	1023	9	0	282	A41	2210	0	000	11	-2	
253	253	34	1023	6	0	282	A41	2210	0	000	4094	91	
254	254	241	995	9	0	282	A41	2210	0	000	91	448	
255	255	241	995	6	0	282	A41	2210	0	000	448	76	
